
T3170 000:367 SEGGER J-Link V4.98e Log File (0001ms, 0271ms total)
T3170 000:367 DLL Compiled: May  5 2015 11:00:52 (0001ms, 0271ms total)
T3170 000:367 Logging started @ 2019-06-26 10:42 (0001ms, 0271ms total)
T3170 000:368 JLINK_SetWarnOutHandler(...) (0000ms, 0271ms total)
T3170 000:368 JLINK_OpenEx(...)
Firmware: J-Link ARM V8 compiled Nov 28 2014 13:44:46
Hardware: V8.00
Feature(s): RDI,FlashDL,FlashBP,JFlash,GDBFULL  returns O.K. (0264ms, 0535ms total)
T3170 000:632 JLINK_SetErrorOutHandler(...) (0000ms, 0535ms total)
T3170 000:632 JLINK_ExecCommand("ProjectFile = "F:\01_水肥\水肥开发\水肥控制器36\Project\JLinkSettings.ini"", ...)  returns 0x00 (0001ms, 0536ms total)
T3170 000:636 JLINK_ExecCommand("Device = STM32F103RB", ...)Device "STM32F103RB" selected.  returns 0x00 (0001ms, 0537ms total)
T3170 000:637 JLINK_ExecCommand("DisableConnectionTimeout", ...)  returns 0x01 (0000ms, 0537ms total)
T3170 000:637 JLINK_GetHardwareVersion()  returns 0x13880 (0000ms, 0537ms total)
T3170 000:637 JLINK_GetDLLVersion()  returns 49805 (0000ms, 0537ms total)
T3170 000:637 JLINK_GetFirmwareString(...) (0000ms, 0537ms total)
T3170 000:644 JLINK_GetDLLVersion()  returns 49805 (0000ms, 0537ms total)
T3170 000:644 JLINK_GetCompileDateTime() (0000ms, 0537ms total)
T3170 000:647 JLINK_GetFirmwareString(...) (0000ms, 0537ms total)
T3170 000:666 JLINK_GetHardwareVersion()  returns 0x13880 (0000ms, 0537ms total)
T3170 000:686 JLINK_TIF_Select(JLINKARM_TIF_SWD)  returns 0x00 (0000ms, 0537ms total)
T3170 000:686 JLINK_SetSpeed(5000) (0000ms, 0537ms total)
T3170 000:686 JLINK_GetId() >0x108 TIF>Found SWD-DP with ID 0x1BA01477 >0x0D TIF> >0x28 TIF> >0x0D TIF> >0x28 TIF> >0x0D TIF> >0x21 TIF> >0x0D TIF> >0x28 TIF> >0x0D TIF> >0x28 TIF> >0x0D TIF> >0x28 TIF> >0x0D TIF> >0x21 TIF> >0x0D TIF> >0x21 TIF> >0x0D TIF> >0x28 TIF> >0x0D TIF> >0x21 TIF> >0x0D TIF> >0x21 TIF> >0x108 TIF>Found SWD-DP with ID 0x1BA01477 >0x0D TIF> >0x21 TIF> >0x0D TIF> >0x28 TIF> >0x0D TIF> >0x28 TIF> >0x0D TIF> >0x21 TIF> >0x0D TIF> >0x28 TIF> >0x0D TIF> >0x21 TIF> >0x0D TIF> >0x21 TIF>
 >0x0D TIF> >0x21 TIF> >0x0D TIF> >0x21 TIF> >0x0D TIF> >0x28 TIF> >0x0D TIF> >0x28 TIF> >0x0D TIF> >0x21 TIF> >0x0D TIF> >0x28 TIF> >0x0D TIF> >0x28 TIF> >0x0D TIF> >0x28 TIF> >0x0D TIF> >0x21 TIF> >0x0D TIF> >0x21 TIF> >0x0D TIF> >0x28 TIF> >0x0D TIF> >0x21 TIF> >0x0D TIF> >0x21 TIF>Found Cortex-M3 r1p1, Little endian. -- CPU_WriteMem(4 bytes @ 0xE0002000) -- CPU_ReadMem(4 bytes @ 0xE000EDF0) -- CPU_ReadMem(4 bytes @ 0xE0002000)FPUnit: 6 code (BP) slots and 2 literal slots
 -- CPU_ReadMem(4 bytes @ 0xE000EDFC) -- CPU_ReadMem(4 bytes @ 0xE0001000) -- CPU_WriteMem(4 bytes @ 0xE0001000) -- CPU_ReadMem(4 bytes @ 0xE000ED88) -- CPU_WriteMem(4 bytes @ 0xE000ED88) -- CPU_ReadMem(4 bytes @ 0xE000ED88) -- CPU_WriteMem(4 bytes @ 0xE000ED88)CoreSight components:ROMTbl 0 @ E00FF000 -- CPU_ReadMem(16 bytes @ 0xE00FF000) -- CPU_ReadMem(16 bytes @ 0xE000EFF0) -- CPU_ReadMem(16 bytes @ 0xE000EFE0)ROMTbl 0 [0]: FFF0F000, CID: B105E00D, PID: 001BB000 SCS
 -- CPU_ReadMem(16 bytes @ 0xE0001FF0) -- CPU_ReadMem(16 bytes @ 0xE0001FE0)ROMTbl 0 [1]: FFF02000, CID: B105E00D, PID: 001BB002 DWT -- CPU_ReadMem(16 bytes @ 0xE0002FF0) -- CPU_ReadMem(16 bytes @ 0xE0002FE0)ROMTbl 0 [2]: FFF03000, CID: B105E00D, PID: 000BB003 FPB -- CPU_ReadMem(16 bytes @ 0xE0000FF0) -- CPU_ReadMem(16 bytes @ 0xE0000FE0)ROMTbl 0 [3]: FFF01000, CID: B105E00D, PID: 001BB001 ITM -- CPU_ReadMem(16 bytes @ 0xE00FF010) -- CPU_ReadMem(16 bytes @ 0xE0040FF0)
 -- CPU_ReadMem(16 bytes @ 0xE0040FE0)ROMTbl 0 [4]: FFF41000, CID: B105900D, PID: 001BB923 TPIU-Lite >0x0D TIF> >0x21 TIF>  returns 0x1BA01477 (0071ms, 0608ms total)
T3170 000:757 JLINK_GetDLLVersion()  returns 49805 (0000ms, 0608ms total)
T3170 000:757 JLINK_CORE_GetFound()  returns 0x30000FF (0000ms, 0608ms total)
T3170 000:757 JLINK_GetDebugInfo(0x100) -- Value=0xE00FF003  returns 0x00 (0000ms, 0608ms total)
T3170 000:760 JLINK_ReadMem (0xE00FF000, 0x0020 Bytes, ...) -- CPU is running -- CPU_ReadMem(32 bytes @ 0xE00FF000) - Data: 03 F0 F0 FF 03 20 F0 FF 03 30 F0 FF 03 10 F0 FF ...  returns 0x00 (0001ms, 0609ms total)
T3170 000:761 JLINK_ReadMem (0xE000EFF0, 0x0010 Bytes, ...) -- CPU is running -- CPU_ReadMem(16 bytes @ 0xE000EFF0) - Data: 0D 00 00 00 E0 00 00 00 05 00 00 00 B1 00 00 00  returns 0x00 (0000ms, 0609ms total)
T3170 000:761 JLINK_ReadMem (0xE000EFD0, 0x0020 Bytes, ...) -- CPU is running -- CPU_ReadMem(32 bytes @ 0xE000EFD0) - Data: 04 00 00 00 00 00 00 00 00 00 00 00 00 00 00 00 ...  returns 0x00 (0001ms, 0610ms total)
T3170 000:762 JLINK_ReadMem (0xE0001FF0, 0x0010 Bytes, ...) -- CPU is running -- CPU_ReadMem(16 bytes @ 0xE0001FF0) - Data: 0D 00 00 00 E0 00 00 00 05 00 00 00 B1 00 00 00  returns 0x00 (0000ms, 0610ms total)
T3170 000:762 JLINK_ReadMem (0xE0001FD0, 0x0020 Bytes, ...) -- CPU is running -- CPU_ReadMem(32 bytes @ 0xE0001FD0) - Data: 04 00 00 00 00 00 00 00 00 00 00 00 00 00 00 00 ...  returns 0x00 (0001ms, 0611ms total)
T3170 000:763 JLINK_ReadMem (0xE0002FF0, 0x0010 Bytes, ...) -- CPU is running -- CPU_ReadMem(16 bytes @ 0xE0002FF0) - Data: 0D 00 00 00 E0 00 00 00 05 00 00 00 B1 00 00 00  returns 0x00 (0001ms, 0612ms total)
T3170 000:764 JLINK_ReadMem (0xE0002FD0, 0x0020 Bytes, ...) -- CPU is running -- CPU_ReadMem(32 bytes @ 0xE0002FD0) - Data: 04 00 00 00 00 00 00 00 00 00 00 00 00 00 00 00 ...  returns 0x00 (0000ms, 0612ms total)
T3170 000:764 JLINK_ReadMem (0xE0000FF0, 0x0010 Bytes, ...) -- CPU is running -- CPU_ReadMem(16 bytes @ 0xE0000FF0) - Data: 0D 00 00 00 E0 00 00 00 05 00 00 00 B1 00 00 00  returns 0x00 (0001ms, 0613ms total)
T3170 000:765 JLINK_ReadMem (0xE0000FD0, 0x0020 Bytes, ...) -- CPU is running -- CPU_ReadMem(32 bytes @ 0xE0000FD0) - Data: 04 00 00 00 00 00 00 00 00 00 00 00 00 00 00 00 ...  returns 0x00 (0000ms, 0613ms total)
T3170 000:765 JLINK_ReadMem (0xE0040FF0, 0x0010 Bytes, ...) -- CPU is running -- CPU_ReadMem(16 bytes @ 0xE0040FF0) - Data: 0D 00 00 00 90 00 00 00 05 00 00 00 B1 00 00 00  returns 0x00 (0001ms, 0614ms total)
T3170 000:766 JLINK_ReadMem (0xE0040FD0, 0x0020 Bytes, ...) -- CPU is running -- CPU_ReadMem(32 bytes @ 0xE0040FD0) - Data: 04 00 00 00 00 00 00 00 00 00 00 00 00 00 00 00 ...  returns 0x00 (0000ms, 0614ms total)
T3170 000:766 JLINK_ReadMemU32(0xE000ED00, 0x0001 Items, ...) -- CPU is running -- CPU_ReadMem(4 bytes @ 0xE000ED00) - Data: 31 C2 1F 41  returns 0x01 (0001ms, 0615ms total)
T3170 000:767 JLINK_SetResetType(JLINKARM_RESET_TYPE_NORMAL)  returns JLINKARM_RESET_TYPE_NORMAL (0000ms, 0615ms total)
T3170 000:767 JLINK_Reset() -- CPU is running -- CPU_WriteMem(4 bytes @ 0xE000EDF0) -- CPU is running -- CPU_WriteMem(4 bytes @ 0xE000EDFC) >0x35 TIF> -- CPU is running -- CPU_WriteMem(4 bytes @ 0xE000ED0C) -- CPU is running -- CPU_ReadMem(4 bytes @ 0xE000EDF0) -- CPU is running -- CPU_ReadMem(4 bytes @ 0xE000EDF0) -- CPU is running -- CPU_WriteMem(4 bytes @ 0xE000EDF0) -- CPU is running -- CPU_WriteMem(4 bytes @ 0xE000EDFC) -- CPU is running -- CPU_ReadMem(4 bytes @ 0xE000EDF0)
 -- CPU_WriteMem(4 bytes @ 0xE0002000) -- CPU_ReadMem(4 bytes @ 0xE000EDFC) -- CPU_ReadMem(4 bytes @ 0xE0001000) (0016ms, 0631ms total)
T3170 000:783 JLINK_Halt()  returns 0x00 (0000ms, 0631ms total)
T3170 000:783 JLINK_IsHalted()  returns TRUE (0000ms, 0631ms total)
T3170 000:783 JLINK_ReadMemU32(0xE000EDF0, 0x0001 Items, ...) -- CPU_ReadMem(4 bytes @ 0xE000EDF0) - Data: 03 00 03 00  returns 0x01 (0001ms, 0632ms total)
T3170 000:784 JLINK_WriteU32(0xE000EDF0, 0xA05F0003) -- CPU_WriteMem(4 bytes @ 0xE000EDF0)  returns 0x00 (0000ms, 0632ms total)
T3170 000:784 JLINK_WriteU32(0xE000EDFC, 0x01000000) -- CPU_WriteMem(4 bytes @ 0xE000EDFC)  returns 0x00 (0000ms, 0632ms total)
T3170 000:797 JLINK_GetHWStatus(...)  returns 0x00 (0000ms, 0632ms total)
T3170 000:805 JLINK_GetNumBPUnits(Type = 0xFFFFFF00)  returns 0x06 (0000ms, 0632ms total)
T3170 000:805 JLINK_GetNumBPUnits(Type = 0xF0)  returns 0x2000 (0000ms, 0632ms total)
T3170 000:805 JLINK_GetNumWPUnits()  returns 0x04 (0000ms, 0632ms total)
T3170 000:815 JLINK_GetSpeed()  returns 0xFA0 (0000ms, 0632ms total)
T3170 000:821 JLINK_ReadMemU32(0xE000E004, 0x0001 Items, ...) -- CPU_ReadMem(4 bytes @ 0xE000E004) - Data: 01 00 00 00  returns 0x01 (0000ms, 0632ms total)
T3170 000:821 JLINK_ReadMemU32(0xE000E004, 0x0001 Items, ...) -- CPU_ReadMem(4 bytes @ 0xE000E004) - Data: 01 00 00 00  returns 0x01 (0001ms, 0633ms total)
T3170 000:822 JLINK_WriteMem(0xE0001000, 0x001C Bytes, ...) - Data: 01 00 00 00 00 00 00 00 00 00 00 00 00 00 00 00 ... -- CPU_WriteMem(28 bytes @ 0xE0001000)  returns 0x1C (0001ms, 0634ms total)
T3170 000:823 JLINK_ReadMem (0xE0001000, 0x001C Bytes, ...) -- CPU_ReadMem(28 bytes @ 0xE0001000) - Data: 01 00 00 40 00 00 00 00 00 00 00 00 00 00 00 00 ...  returns 0x00 (0000ms, 0634ms total)
T3170 000:823 JLINK_Halt()  returns 0x00 (0000ms, 0634ms total)
T3170 000:823 JLINK_IsHalted()  returns TRUE (0000ms, 0634ms total)
T3170 000:826 JLINK_WriteMem(0x20000000, 0x0164 Bytes, ...) - Data: 00 BE 0A E0 0D 78 2D 06 68 40 08 24 40 00 00 D3 ... -- CPU_WriteMem(356 bytes @ 0x20000000)  returns 0x164 (0004ms, 0638ms total)
T3170 000:830 JLINK_WriteReg(R0, 0x08000000)  returns 0x00 (0000ms, 0638ms total)
T3170 000:830 JLINK_WriteReg(R1, 0x00B71B00)  returns 0x00 (0000ms, 0638ms total)
T3170 000:830 JLINK_WriteReg(R2, 0x00000001)  returns 0x00 (0000ms, 0638ms total)
T3170 000:830 JLINK_WriteReg(R3, 0x00000000)  returns 0x00 (0000ms, 0638ms total)
T3170 000:830 JLINK_WriteReg(R4, 0x00000000)  returns 0x00 (0000ms, 0638ms total)
T3170 000:830 JLINK_WriteReg(R5, 0x00000000)  returns 0x00 (0000ms, 0638ms total)
T3170 000:830 JLINK_WriteReg(R6, 0x00000000)  returns 0x00 (0000ms, 0638ms total)
T3170 000:830 JLINK_WriteReg(R7, 0x00000000)  returns 0x00 (0000ms, 0638ms total)
T3170 000:830 JLINK_WriteReg(R8, 0x00000000)  returns 0x00 (0000ms, 0638ms total)
T3170 000:830 JLINK_WriteReg(R9, 0x20000160)  returns 0x00 (0000ms, 0638ms total)
T3170 000:830 JLINK_WriteReg(R10, 0x00000000)  returns 0x00 (0000ms, 0638ms total)
T3170 000:830 JLINK_WriteReg(R11, 0x00000000)  returns 0x00 (0000ms, 0638ms total)
T3170 000:830 JLINK_WriteReg(R12, 0x00000000)  returns 0x00 (0000ms, 0638ms total)
T3170 000:830 JLINK_WriteReg(R13 (SP), 0x20000800)  returns 0x00 (0000ms, 0638ms total)
T3170 000:830 JLINK_WriteReg(R14, 0x20000001)  returns 0x00 (0000ms, 0638ms total)
T3170 000:830 JLINK_WriteReg(R15 (PC), 0x20000038)  returns 0x00 (0000ms, 0638ms total)
T3170 000:830 JLINK_WriteReg(XPSR, 0x01000000)  returns 0x00 (0000ms, 0638ms total)
T3170 000:830 JLINK_WriteReg(MSP, 0x20000800)  returns 0x00 (0000ms, 0638ms total)
T3170 000:830 JLINK_WriteReg(PSP, 0x20000800)  returns 0x00 (0000ms, 0638ms total)
T3170 000:830 JLINK_WriteReg(CFBP, 0x00000000)  returns 0x00 (0000ms, 0638ms total)
T3170 000:830 JLINK_SetBPEx(Addr = 0x20000000, Type = 0xFFFFFFF2) -- CPU_ReadMem(2 bytes @ 0x20000000)  returns 0x00000001 (0000ms, 0638ms total)
T3170 000:830 JLINK_Go() -- CPU_WriteMem(2 bytes @ 0x20000000) -- CPU_ReadMem(4 bytes @ 0xE0001000) -- CPU_WriteMem(4 bytes @ 0xE0002008) -- CPU_WriteMem(4 bytes @ 0xE000200C) -- CPU_WriteMem(4 bytes @ 0xE0002010) -- CPU_WriteMem(4 bytes @ 0xE0002014) -- CPU_WriteMem(4 bytes @ 0xE0002018) -- CPU_WriteMem(4 bytes @ 0xE000201C) -- CPU_WriteMem(4 bytes @ 0xE0001004) (0005ms, 0643ms total)
T3170 000:835 JLINK_IsHalted() -- CPU_ReadMem(2 bytes @ 0x20000000)  returns TRUE (0002ms, 0645ms total)
T3170 000:837 JLINK_ReadReg(R15 (PC))  returns 0x20000000 (0000ms, 0643ms total)
T3170 000:837 JLINK_ClrBPEx(BPHandle = 0x00000001)  returns 0x00 (0000ms, 0643ms total)
T3170 000:837 JLINK_ReadReg(R0)  returns 0x00000000 (0000ms, 0643ms total)
T3170 000:838 JLINK_WriteReg(R0, 0x08000000)  returns 0x00 (0000ms, 0643ms total)
T3170 000:838 JLINK_WriteReg(R1, 0x00B71B00)  returns 0x00 (0000ms, 0643ms total)
T3170 000:838 JLINK_WriteReg(R2, 0x00000001)  returns 0x00 (0000ms, 0643ms total)
T3170 000:838 JLINK_WriteReg(R3, 0x00000000)  returns 0x00 (0000ms, 0643ms total)
T3170 000:838 JLINK_WriteReg(R4, 0x00000000)  returns 0x00 (0000ms, 0643ms total)
T3170 000:838 JLINK_WriteReg(R5, 0x00000000)  returns 0x00 (0000ms, 0643ms total)
T3170 000:838 JLINK_WriteReg(R6, 0x00000000)  returns 0x00 (0000ms, 0643ms total)
T3170 000:838 JLINK_WriteReg(R7, 0x00000000)  returns 0x00 (0000ms, 0643ms total)
T3170 000:838 JLINK_WriteReg(R8, 0x00000000)  returns 0x00 (0000ms, 0643ms total)
T3170 000:838 JLINK_WriteReg(R9, 0x20000160)  returns 0x00 (0000ms, 0643ms total)
T3170 000:838 JLINK_WriteReg(R10, 0x00000000)  returns 0x00 (0000ms, 0643ms total)
T3170 000:838 JLINK_WriteReg(R11, 0x00000000)  returns 0x00 (0000ms, 0643ms total)
T3170 000:839 JLINK_WriteReg(R12, 0x00000000)  returns 0x00 (0000ms, 0644ms total)
T3170 000:839 JLINK_WriteReg(R13 (SP), 0x20000800)  returns 0x00 (0000ms, 0644ms total)
T3170 000:839 JLINK_WriteReg(R14, 0x20000001)  returns 0x00 (0000ms, 0644ms total)
T3170 000:839 JLINK_WriteReg(R15 (PC), 0x2000007C)  returns 0x00 (0000ms, 0644ms total)
T3170 000:839 JLINK_WriteReg(XPSR, 0x01000000)  returns 0x00 (0000ms, 0644ms total)
T3170 000:839 JLINK_WriteReg(MSP, 0x20000800)  returns 0x00 (0000ms, 0644ms total)
T3170 000:839 JLINK_WriteReg(PSP, 0x20000800)  returns 0x00 (0000ms, 0644ms total)
T3170 000:839 JLINK_WriteReg(CFBP, 0x00000000)  returns 0x00 (0000ms, 0644ms total)
T3170 000:839 JLINK_SetBPEx(Addr = 0x20000000, Type = 0xFFFFFFF2)  returns 0x00000002 (0000ms, 0644ms total)
T3170 000:839 JLINK_Go() -- CPU_ReadMem(4 bytes @ 0xE0001000) (0001ms, 0645ms total)
T3170 000:840 JLINK_IsHalted()  returns FALSE (0000ms, 0645ms total)
T3170 000:941 JLINK_ReadReg(R0) -- CPU_ReadMem(2 bytes @ 0x20000000)  returns 0x00000000 (0003ms, 0648ms total)
T3170 000:944 JLINK_ReadReg(R1)  returns 0x40022000 (0000ms, 0648ms total)
T3170 000:944 JLINK_ReadReg(R2)  returns 0x00000001 (0000ms, 0648ms total)
T3170 000:944 JLINK_ReadReg(R3)  returns 0x00000000 (0000ms, 0648ms total)
T3170 000:944 JLINK_ReadReg(R4)  returns 0x00000000 (0000ms, 0648ms total)
T3170 000:944 JLINK_ReadReg(R5)  returns 0x00000000 (0000ms, 0648ms total)
T3170 000:944 JLINK_ReadReg(R6)  returns 0x00000000 (0000ms, 0648ms total)
T3170 000:944 JLINK_ReadReg(R7)  returns 0x00000000 (0000ms, 0648ms total)
T3170 000:944 JLINK_ReadReg(R8)  returns 0x00000000 (0000ms, 0648ms total)
T3170 000:944 JLINK_ReadReg(R9)  returns 0x20000160 (0000ms, 0648ms total)
T3170 000:944 JLINK_ReadReg(R10)  returns 0x00000000 (0000ms, 0648ms total)
T3170 000:944 JLINK_ReadReg(R11)  returns 0x00000000 (0000ms, 0648ms total)
T3170 000:944 JLINK_ReadReg(R12)  returns 0x00000000 (0000ms, 0648ms total)
T3170 000:944 JLINK_ReadReg(R13 (SP))  returns 0x20000800 (0000ms, 0648ms total)
T3170 000:944 JLINK_ReadReg(R14)  returns 0x20000001 (0000ms, 0648ms total)
T3170 000:944 JLINK_ReadReg(R15 (PC))  returns 0x20000000 (0000ms, 0648ms total)
T3170 000:944 JLINK_ReadReg(XPSR)  returns 0x41000000 (0000ms, 0648ms total)
T3170 000:944 JLINK_ReadReg(MSP)  returns 0x20000800 (0000ms, 0648ms total)
T3170 000:944 JLINK_ReadReg(PSP)  returns 0x20000800 (0000ms, 0648ms total)
T3170 000:944 JLINK_ReadReg(CFBP)  returns 0x00000000 (0000ms, 0648ms total)
T3170 000:975 JLINK_IsHalted()  returns TRUE (0000ms, 0648ms total)
T3170 000:975 JLINK_ReadReg(R15 (PC))  returns 0x20000000 (0000ms, 0648ms total)
T3170 000:975 JLINK_ClrBPEx(BPHandle = 0x00000002)  returns 0x00 (0000ms, 0648ms total)
T3170 000:975 JLINK_ReadReg(R0)  returns 0x00000000 (0000ms, 0648ms total)
T3170 001:027 JLINK_WriteReg(R0, 0x00000001)  returns 0x00 (0000ms, 0648ms total)
T3170 001:027 JLINK_WriteReg(R1, 0x40022000)  returns 0x00 (0000ms, 0648ms total)
T3170 001:027 JLINK_WriteReg(R2, 0x00000001)  returns 0x00 (0000ms, 0648ms total)
T3170 001:027 JLINK_WriteReg(R3, 0x00000000)  returns 0x00 (0000ms, 0648ms total)
T3170 001:027 JLINK_WriteReg(R4, 0x00000000)  returns 0x00 (0000ms, 0648ms total)
T3170 001:027 JLINK_WriteReg(R5, 0x00000000)  returns 0x00 (0000ms, 0648ms total)
T3170 001:027 JLINK_WriteReg(R6, 0x00000000)  returns 0x00 (0000ms, 0648ms total)
T3170 001:027 JLINK_WriteReg(R7, 0x00000000)  returns 0x00 (0000ms, 0648ms total)
T3170 001:027 JLINK_WriteReg(R8, 0x00000000)  returns 0x00 (0000ms, 0648ms total)
T3170 001:027 JLINK_WriteReg(R9, 0x20000160)  returns 0x00 (0000ms, 0648ms total)
T3170 001:027 JLINK_WriteReg(R10, 0x00000000)  returns 0x00 (0000ms, 0648ms total)
T3170 001:027 JLINK_WriteReg(R11, 0x00000000)  returns 0x00 (0000ms, 0648ms total)
T3170 001:027 JLINK_WriteReg(R12, 0x00000000)  returns 0x00 (0000ms, 0648ms total)
T3170 001:027 JLINK_WriteReg(R13 (SP), 0x20000800)  returns 0x00 (0000ms, 0648ms total)
T3170 001:027 JLINK_WriteReg(R14, 0x20000001)  returns 0x00 (0000ms, 0648ms total)
T3170 001:027 JLINK_WriteReg(R15 (PC), 0x2000006A)  returns 0x00 (0000ms, 0648ms total)
T3170 001:027 JLINK_WriteReg(XPSR, 0x01000000)  returns 0x00 (0000ms, 0648ms total)
T3170 001:027 JLINK_WriteReg(MSP, 0x20000800)  returns 0x00 (0000ms, 0648ms total)
T3170 001:027 JLINK_WriteReg(PSP, 0x20000800)  returns 0x00 (0000ms, 0648ms total)
T3170 001:027 JLINK_WriteReg(CFBP, 0x00000000)  returns 0x00 (0000ms, 0648ms total)
T3170 001:027 JLINK_SetBPEx(Addr = 0x20000000, Type = 0xFFFFFFF2)  returns 0x00000003 (0000ms, 0648ms total)
T3170 001:027 JLINK_Go() -- CPU_ReadMem(4 bytes @ 0xE0001000) (0002ms, 0650ms total)
T3170 001:029 JLINK_IsHalted() -- CPU_ReadMem(2 bytes @ 0x20000000)  returns TRUE (0003ms, 0653ms total)
T3170 001:032 JLINK_ReadReg(R15 (PC))  returns 0x20000000 (0000ms, 0650ms total)
T3170 001:032 JLINK_ClrBPEx(BPHandle = 0x00000003)  returns 0x00 (0000ms, 0650ms total)
T3170 001:032 JLINK_ReadReg(R0)  returns 0x00000000 (0000ms, 0650ms total)
T3170 001:037 JLINK_WriteMem(0x20000000, 0x0164 Bytes, ...) - Data: 00 BE 0A E0 0D 78 2D 06 68 40 08 24 40 00 00 D3 ... -- CPU_WriteMem(356 bytes @ 0x20000000)  returns 0x164 (0003ms, 0653ms total)
T3170 001:040 JLINK_WriteReg(R0, 0x08000000)  returns 0x00 (0000ms, 0653ms total)
T3170 001:040 JLINK_WriteReg(R1, 0x00B71B00)  returns 0x00 (0000ms, 0653ms total)
T3170 001:040 JLINK_WriteReg(R2, 0x00000002)  returns 0x00 (0000ms, 0653ms total)
T3170 001:040 JLINK_WriteReg(R3, 0x00000000)  returns 0x00 (0000ms, 0653ms total)
T3170 001:040 JLINK_WriteReg(R4, 0x00000000)  returns 0x00 (0000ms, 0653ms total)
T3170 001:040 JLINK_WriteReg(R5, 0x00000000)  returns 0x00 (0000ms, 0653ms total)
T3170 001:040 JLINK_WriteReg(R6, 0x00000000)  returns 0x00 (0000ms, 0653ms total)
T3170 001:040 JLINK_WriteReg(R7, 0x00000000)  returns 0x00 (0000ms, 0653ms total)
T3170 001:040 JLINK_WriteReg(R8, 0x00000000)  returns 0x00 (0000ms, 0653ms total)
T3170 001:040 JLINK_WriteReg(R9, 0x20000160)  returns 0x00 (0000ms, 0653ms total)
T3170 001:040 JLINK_WriteReg(R10, 0x00000000)  returns 0x00 (0000ms, 0653ms total)
T3170 001:040 JLINK_WriteReg(R11, 0x00000000)  returns 0x00 (0000ms, 0653ms total)
T3170 001:040 JLINK_WriteReg(R12, 0x00000000)  returns 0x00 (0000ms, 0653ms total)
T3170 001:040 JLINK_WriteReg(R13 (SP), 0x20000800)  returns 0x00 (0000ms, 0653ms total)
T3170 001:040 JLINK_WriteReg(R14, 0x20000001)  returns 0x00 (0000ms, 0653ms total)
T3170 001:040 JLINK_WriteReg(R15 (PC), 0x20000038)  returns 0x00 (0000ms, 0653ms total)
T3170 001:040 JLINK_WriteReg(XPSR, 0x01000000)  returns 0x00 (0001ms, 0654ms total)
T3170 001:041 JLINK_WriteReg(MSP, 0x20000800)  returns 0x00 (0000ms, 0654ms total)
T3170 001:041 JLINK_WriteReg(PSP, 0x20000800)  returns 0x00 (0000ms, 0654ms total)
T3170 001:041 JLINK_WriteReg(CFBP, 0x00000000)  returns 0x00 (0000ms, 0654ms total)
T3170 001:041 JLINK_SetBPEx(Addr = 0x20000000, Type = 0xFFFFFFF2) -- CPU_ReadMem(2 bytes @ 0x20000000)  returns 0x00000004 (0000ms, 0654ms total)
T3170 001:041 JLINK_Go() -- CPU_WriteMem(2 bytes @ 0x20000000) -- CPU_ReadMem(4 bytes @ 0xE0001000) (0002ms, 0656ms total)
T3170 001:043 JLINK_IsHalted() -- CPU_ReadMem(2 bytes @ 0x20000000)  returns TRUE (0004ms, 0660ms total)
T3170 001:047 JLINK_ReadReg(R15 (PC))  returns 0x20000000 (0000ms, 0656ms total)
T3170 001:047 JLINK_ClrBPEx(BPHandle = 0x00000004)  returns 0x00 (0000ms, 0656ms total)
T3170 001:047 JLINK_ReadReg(R0)  returns 0x00000000 (0000ms, 0656ms total)
T3170 001:047 JLINK_WriteMem(0x20000164, 0x0400 Bytes, ...) - Data: 40 13 00 20 01 01 00 08 FD 1F 00 08 FF 1F 00 08 ... -- CPU_WriteMem(1024 bytes @ 0x20000164)  returns 0x400 (0006ms, 0662ms total)
T3170 001:053 JLINK_WriteReg(R0, 0x08000000)  returns 0x00 (0000ms, 0662ms total)
T3170 001:053 JLINK_WriteReg(R1, 0x00000400)  returns 0x00 (0000ms, 0662ms total)
T3170 001:053 JLINK_WriteReg(R2, 0x20000164)  returns 0x00 (0000ms, 0662ms total)
T3170 001:053 JLINK_WriteReg(R3, 0x00000000)  returns 0x00 (0000ms, 0662ms total)
T3170 001:053 JLINK_WriteReg(R4, 0x00000000)  returns 0x00 (0000ms, 0662ms total)
T3170 001:053 JLINK_WriteReg(R5, 0x00000000)  returns 0x00 (0000ms, 0662ms total)
T3170 001:053 JLINK_WriteReg(R6, 0x00000000)  returns 0x00 (0000ms, 0662ms total)
T3170 001:053 JLINK_WriteReg(R7, 0x00000000)  returns 0x00 (0000ms, 0662ms total)
T3170 001:053 JLINK_WriteReg(R8, 0x00000000)  returns 0x00 (0000ms, 0662ms total)
T3170 001:053 JLINK_WriteReg(R9, 0x20000160)  returns 0x00 (0000ms, 0662ms total)
T3170 001:053 JLINK_WriteReg(R10, 0x00000000)  returns 0x00 (0000ms, 0662ms total)
T3170 001:053 JLINK_WriteReg(R11, 0x00000000)  returns 0x00 (0000ms, 0662ms total)
T3170 001:053 JLINK_WriteReg(R12, 0x00000000)  returns 0x00 (0000ms, 0662ms total)
T3170 001:053 JLINK_WriteReg(R13 (SP), 0x20000800)  returns 0x00 (0000ms, 0662ms total)
T3170 001:053 JLINK_WriteReg(R14, 0x20000001)  returns 0x00 (0000ms, 0662ms total)
T3170 001:053 JLINK_WriteReg(R15 (PC), 0x200000F4)  returns 0x00 (0000ms, 0662ms total)
T3170 001:053 JLINK_WriteReg(XPSR, 0x01000000)  returns 0x00 (0000ms, 0662ms total)
T3170 001:053 JLINK_WriteReg(MSP, 0x20000800)  returns 0x00 (0000ms, 0662ms total)
T3170 001:053 JLINK_WriteReg(PSP, 0x20000800)  returns 0x00 (0000ms, 0662ms total)
T3170 001:053 JLINK_WriteReg(CFBP, 0x00000000)  returns 0x00 (0000ms, 0662ms total)
T3170 001:053 JLINK_SetBPEx(Addr = 0x20000000, Type = 0xFFFFFFF2)  returns 0x00000005 (0000ms, 0662ms total)
T3170 001:053 JLINK_Go() -- CPU_ReadMem(4 bytes @ 0xE0001000) (0003ms, 0665ms total)
T3170 001:056 JLINK_IsHalted()  returns FALSE (0000ms, 0665ms total)
T3170 001:073 JLINK_IsHalted()  returns FALSE (0000ms, 0665ms total)
T3170 001:075 JLINK_IsHalted()  returns FALSE (0000ms, 0665ms total)
T3170 001:082 JLINK_IsHalted()  returns FALSE (0000ms, 0665ms total)
T3170 001:084 JLINK_IsHalted()  returns FALSE (0000ms, 0665ms total)
T3170 001:086 JLINK_IsHalted()  returns FALSE (0000ms, 0665ms total)
T3170 001:088 JLINK_IsHalted() -- CPU_ReadMem(2 bytes @ 0x20000000)  returns TRUE (0003ms, 0668ms total)
T3170 001:091 JLINK_ReadReg(R15 (PC))  returns 0x20000000 (0000ms, 0665ms total)
T3170 001:091 JLINK_ClrBPEx(BPHandle = 0x00000005)  returns 0x00 (0000ms, 0665ms total)
T3170 001:092 JLINK_ReadReg(R0)  returns 0x00000000 (0000ms, 0666ms total)
T3170 001:093 JLINK_WriteMem(0x20000164, 0x0400 Bytes, ...) - Data: 88 43 D6 1F 06 EB 86 06 05 FA 06 F1 08 43 20 63 ... -- CPU_WriteMem(1024 bytes @ 0x20000164)  returns 0x400 (0006ms, 0672ms total)
T3170 001:099 JLINK_WriteReg(R0, 0x08000400)  returns 0x00 (0000ms, 0672ms total)
T3170 001:099 JLINK_WriteReg(R1, 0x00000400)  returns 0x00 (0000ms, 0672ms total)
T3170 001:099 JLINK_WriteReg(R2, 0x20000164)  returns 0x00 (0000ms, 0672ms total)
T3170 001:099 JLINK_WriteReg(R3, 0x00000000)  returns 0x00 (0000ms, 0672ms total)
T3170 001:099 JLINK_WriteReg(R4, 0x00000000)  returns 0x00 (0000ms, 0672ms total)
T3170 001:099 JLINK_WriteReg(R5, 0x00000000)  returns 0x00 (0000ms, 0672ms total)
T3170 001:099 JLINK_WriteReg(R6, 0x00000000)  returns 0x00 (0000ms, 0672ms total)
T3170 001:099 JLINK_WriteReg(R7, 0x00000000)  returns 0x00 (0000ms, 0672ms total)
T3170 001:099 JLINK_WriteReg(R8, 0x00000000)  returns 0x00 (0000ms, 0672ms total)
T3170 001:099 JLINK_WriteReg(R9, 0x20000160)  returns 0x00 (0000ms, 0672ms total)
T3170 001:099 JLINK_WriteReg(R10, 0x00000000)  returns 0x00 (0000ms, 0672ms total)
T3170 001:099 JLINK_WriteReg(R11, 0x00000000)  returns 0x00 (0000ms, 0672ms total)
T3170 001:099 JLINK_WriteReg(R12, 0x00000000)  returns 0x00 (0000ms, 0672ms total)
T3170 001:099 JLINK_WriteReg(R13 (SP), 0x20000800)  returns 0x00 (0000ms, 0672ms total)
T3170 001:099 JLINK_WriteReg(R14, 0x20000001)  returns 0x00 (0000ms, 0672ms total)
T3170 001:099 JLINK_WriteReg(R15 (PC), 0x200000F4)  returns 0x00 (0000ms, 0672ms total)
T3170 001:099 JLINK_WriteReg(XPSR, 0x01000000)  returns 0x00 (0000ms, 0672ms total)
T3170 001:099 JLINK_WriteReg(MSP, 0x20000800)  returns 0x00 (0000ms, 0672ms total)
T3170 001:099 JLINK_WriteReg(PSP, 0x20000800)  returns 0x00 (0000ms, 0672ms total)
T3170 001:099 JLINK_WriteReg(CFBP, 0x00000000)  returns 0x00 (0000ms, 0672ms total)
T3170 001:099 JLINK_SetBPEx(Addr = 0x20000000, Type = 0xFFFFFFF2)  returns 0x00000006 (0000ms, 0672ms total)
T3170 001:099 JLINK_Go() -- CPU_ReadMem(4 bytes @ 0xE0001000) (0002ms, 0674ms total)
T3170 001:101 JLINK_IsHalted()  returns FALSE (0001ms, 0675ms total)
T3170 001:105 JLINK_IsHalted()  returns FALSE (0000ms, 0674ms total)
T3170 001:107 JLINK_IsHalted()  returns FALSE (0001ms, 0675ms total)
T3170 001:109 JLINK_IsHalted()  returns FALSE (0000ms, 0674ms total)
T3170 001:115 JLINK_IsHalted()  returns FALSE (0000ms, 0674ms total)
T3170 001:117 JLINK_IsHalted()  returns FALSE (0000ms, 0674ms total)
T3170 001:119 JLINK_IsHalted()  returns FALSE (0000ms, 0674ms total)
T3170 001:121 JLINK_IsHalted()  returns FALSE (0000ms, 0674ms total)
T3170 001:123 JLINK_IsHalted()  returns FALSE (0000ms, 0674ms total)
T3170 001:128 JLINK_IsHalted()  returns FALSE (0000ms, 0674ms total)
T3170 001:130 JLINK_IsHalted()  returns FALSE (0000ms, 0674ms total)
T3170 001:132 JLINK_IsHalted() -- CPU_ReadMem(2 bytes @ 0x20000000)  returns TRUE (0003ms, 0677ms total)
T3170 001:135 JLINK_ReadReg(R15 (PC))  returns 0x20000000 (0000ms, 0674ms total)
T3170 001:135 JLINK_ClrBPEx(BPHandle = 0x00000006)  returns 0x00 (0000ms, 0674ms total)
T3170 001:135 JLINK_ReadReg(R0)  returns 0x00000000 (0000ms, 0674ms total)
T3170 001:136 JLINK_WriteMem(0x20000164, 0x0400 Bytes, ...) - Data: 01 F0 10 01 09 B1 03 20 00 E0 04 20 70 47 00 B5 ... -- CPU_WriteMem(1024 bytes @ 0x20000164)  returns 0x400 (0006ms, 0680ms total)
T3170 001:142 JLINK_WriteReg(R0, 0x08000800)  returns 0x00 (0000ms, 0680ms total)
T3170 001:142 JLINK_WriteReg(R1, 0x00000400)  returns 0x00 (0000ms, 0680ms total)
T3170 001:142 JLINK_WriteReg(R2, 0x20000164)  returns 0x00 (0000ms, 0680ms total)
T3170 001:142 JLINK_WriteReg(R3, 0x00000000)  returns 0x00 (0000ms, 0680ms total)
T3170 001:142 JLINK_WriteReg(R4, 0x00000000)  returns 0x00 (0000ms, 0680ms total)
T3170 001:142 JLINK_WriteReg(R5, 0x00000000)  returns 0x00 (0000ms, 0680ms total)
T3170 001:142 JLINK_WriteReg(R6, 0x00000000)  returns 0x00 (0000ms, 0680ms total)
T3170 001:142 JLINK_WriteReg(R7, 0x00000000)  returns 0x00 (0000ms, 0680ms total)
T3170 001:142 JLINK_WriteReg(R8, 0x00000000)  returns 0x00 (0000ms, 0680ms total)
T3170 001:142 JLINK_WriteReg(R9, 0x20000160)  returns 0x00 (0000ms, 0680ms total)
T3170 001:142 JLINK_WriteReg(R10, 0x00000000)  returns 0x00 (0000ms, 0680ms total)
T3170 001:142 JLINK_WriteReg(R11, 0x00000000)  returns 0x00 (0000ms, 0680ms total)
T3170 001:142 JLINK_WriteReg(R12, 0x00000000)  returns 0x00 (0000ms, 0680ms total)
T3170 001:142 JLINK_WriteReg(R13 (SP), 0x20000800)  returns 0x00 (0000ms, 0680ms total)
T3170 001:143 JLINK_WriteReg(R14, 0x20000001)  returns 0x00 (0000ms, 0680ms total)
T3170 001:143 JLINK_WriteReg(R15 (PC), 0x200000F4)  returns 0x00 (0000ms, 0680ms total)
T3170 001:143 JLINK_WriteReg(XPSR, 0x01000000)  returns 0x00 (0000ms, 0680ms total)
T3170 001:143 JLINK_WriteReg(MSP, 0x20000800)  returns 0x00 (0000ms, 0680ms total)
T3170 001:143 JLINK_WriteReg(PSP, 0x20000800)  returns 0x00 (0000ms, 0680ms total)
T3170 001:143 JLINK_WriteReg(CFBP, 0x00000000)  returns 0x00 (0000ms, 0680ms total)
T3170 001:143 JLINK_SetBPEx(Addr = 0x20000000, Type = 0xFFFFFFF2)  returns 0x00000007 (0000ms, 0680ms total)
T3170 001:143 JLINK_Go() -- CPU_ReadMem(4 bytes @ 0xE0001000) (0002ms, 0682ms total)
T3170 001:145 JLINK_IsHalted()  returns FALSE (0001ms, 0683ms total)
T3170 001:151 JLINK_IsHalted()  returns FALSE (0000ms, 0682ms total)
T3170 001:153 JLINK_IsHalted()  returns FALSE (0001ms, 0683ms total)
T3170 001:164 JLINK_IsHalted()  returns FALSE (0000ms, 0682ms total)
T3170 001:166 JLINK_IsHalted()  returns FALSE (0000ms, 0682ms total)
T3170 001:168 JLINK_IsHalted()  returns FALSE (0001ms, 0683ms total)
T3170 001:173 JLINK_IsHalted()  returns FALSE (0000ms, 0682ms total)
T3170 001:175 JLINK_IsHalted()  returns FALSE (0000ms, 0682ms total)
T3170 001:177 JLINK_IsHalted() -- CPU_ReadMem(2 bytes @ 0x20000000)  returns TRUE (0002ms, 0684ms total)
T3170 001:179 JLINK_ReadReg(R15 (PC))  returns 0x20000000 (0000ms, 0682ms total)
T3170 001:179 JLINK_ClrBPEx(BPHandle = 0x00000007)  returns 0x00 (0000ms, 0682ms total)
T3170 001:179 JLINK_ReadReg(R0)  returns 0x00000000 (0000ms, 0682ms total)
T3170 001:180 JLINK_WriteMem(0x20000164, 0x0400 Bytes, ...) - Data: 41 F6 EF 71 08 40 44 49 08 61 08 E0 05 2C 06 D0 ... -- CPU_WriteMem(1024 bytes @ 0x20000164)  returns 0x400 (0007ms, 0689ms total)
T3170 001:187 JLINK_WriteReg(R0, 0x08000C00)  returns 0x00 (0000ms, 0689ms total)
T3170 001:187 JLINK_WriteReg(R1, 0x00000400)  returns 0x00 (0000ms, 0689ms total)
T3170 001:187 JLINK_WriteReg(R2, 0x20000164)  returns 0x00 (0000ms, 0689ms total)
T3170 001:187 JLINK_WriteReg(R3, 0x00000000)  returns 0x00 (0000ms, 0689ms total)
T3170 001:187 JLINK_WriteReg(R4, 0x00000000)  returns 0x00 (0000ms, 0689ms total)
T3170 001:187 JLINK_WriteReg(R5, 0x00000000)  returns 0x00 (0000ms, 0689ms total)
T3170 001:187 JLINK_WriteReg(R6, 0x00000000)  returns 0x00 (0000ms, 0689ms total)
T3170 001:187 JLINK_WriteReg(R7, 0x00000000)  returns 0x00 (0000ms, 0689ms total)
T3170 001:187 JLINK_WriteReg(R8, 0x00000000)  returns 0x00 (0000ms, 0689ms total)
T3170 001:187 JLINK_WriteReg(R9, 0x20000160)  returns 0x00 (0000ms, 0689ms total)
T3170 001:187 JLINK_WriteReg(R10, 0x00000000)  returns 0x00 (0000ms, 0689ms total)
T3170 001:187 JLINK_WriteReg(R11, 0x00000000)  returns 0x00 (0000ms, 0689ms total)
T3170 001:187 JLINK_WriteReg(R12, 0x00000000)  returns 0x00 (0000ms, 0689ms total)
T3170 001:187 JLINK_WriteReg(R13 (SP), 0x20000800)  returns 0x00 (0000ms, 0689ms total)
T3170 001:187 JLINK_WriteReg(R14, 0x20000001)  returns 0x00 (0000ms, 0689ms total)
T3170 001:187 JLINK_WriteReg(R15 (PC), 0x200000F4)  returns 0x00 (0000ms, 0689ms total)
T3170 001:187 JLINK_WriteReg(XPSR, 0x01000000)  returns 0x00 (0001ms, 0690ms total)
T3170 001:188 JLINK_WriteReg(MSP, 0x20000800)  returns 0x00 (0000ms, 0690ms total)
T3170 001:188 JLINK_WriteReg(PSP, 0x20000800)  returns 0x00 (0000ms, 0690ms total)
T3170 001:188 JLINK_WriteReg(CFBP, 0x00000000)  returns 0x00 (0000ms, 0690ms total)
T3170 001:188 JLINK_SetBPEx(Addr = 0x20000000, Type = 0xFFFFFFF2)  returns 0x00000008 (0000ms, 0690ms total)
T3170 001:188 JLINK_Go() -- CPU_ReadMem(4 bytes @ 0xE0001000) (0001ms, 0691ms total)
T3170 001:189 JLINK_IsHalted()  returns FALSE (0000ms, 0691ms total)
T3170 001:194 JLINK_IsHalted()  returns FALSE (0000ms, 0691ms total)
T3170 001:196 JLINK_IsHalted()  returns FALSE (0000ms, 0691ms total)
T3170 001:198 JLINK_IsHalted()  returns FALSE (0000ms, 0691ms total)
T3170 001:200 JLINK_IsHalted()  returns FALSE (0000ms, 0691ms total)
T3170 001:202 JLINK_IsHalted()  returns FALSE (0000ms, 0691ms total)
T3170 001:204 JLINK_IsHalted()  returns FALSE (0000ms, 0691ms total)
T3170 001:209 JLINK_IsHalted()  returns FALSE (0000ms, 0691ms total)
T3170 001:211 JLINK_IsHalted()  returns FALSE (0000ms, 0691ms total)
T3170 001:213 JLINK_IsHalted()  returns FALSE (0000ms, 0691ms total)
T3170 001:215 JLINK_IsHalted()  returns FALSE (0000ms, 0691ms total)
T3170 001:222 JLINK_IsHalted() -- CPU_ReadMem(2 bytes @ 0x20000000)  returns TRUE (0002ms, 0693ms total)
T3170 001:224 JLINK_ReadReg(R15 (PC))  returns 0x20000000 (0000ms, 0691ms total)
T3170 001:224 JLINK_ClrBPEx(BPHandle = 0x00000008)  returns 0x00 (0000ms, 0691ms total)
T3170 001:224 JLINK_ReadReg(R0)  returns 0x00000000 (0000ms, 0691ms total)
T3170 001:225 JLINK_WriteMem(0x20000164, 0x0400 Bytes, ...) - Data: 00 46 B6 F1 00 4F 02 D1 1C 4E F1 61 01 E0 1B 4E ... -- CPU_WriteMem(1024 bytes @ 0x20000164)  returns 0x400 (0006ms, 0697ms total)
T3170 001:231 JLINK_WriteReg(R0, 0x08001000)  returns 0x00 (0000ms, 0697ms total)
T3170 001:231 JLINK_WriteReg(R1, 0x00000400)  returns 0x00 (0000ms, 0697ms total)
T3170 001:231 JLINK_WriteReg(R2, 0x20000164)  returns 0x00 (0000ms, 0697ms total)
T3170 001:231 JLINK_WriteReg(R3, 0x00000000)  returns 0x00 (0000ms, 0697ms total)
T3170 001:231 JLINK_WriteReg(R4, 0x00000000)  returns 0x00 (0000ms, 0697ms total)
T3170 001:231 JLINK_WriteReg(R5, 0x00000000)  returns 0x00 (0000ms, 0697ms total)
T3170 001:231 JLINK_WriteReg(R6, 0x00000000)  returns 0x00 (0000ms, 0697ms total)
T3170 001:231 JLINK_WriteReg(R7, 0x00000000)  returns 0x00 (0000ms, 0697ms total)
T3170 001:231 JLINK_WriteReg(R8, 0x00000000)  returns 0x00 (0000ms, 0697ms total)
T3170 001:231 JLINK_WriteReg(R9, 0x20000160)  returns 0x00 (0000ms, 0697ms total)
T3170 001:231 JLINK_WriteReg(R10, 0x00000000)  returns 0x00 (0001ms, 0698ms total)
T3170 001:232 JLINK_WriteReg(R11, 0x00000000)  returns 0x00 (0000ms, 0698ms total)
T3170 001:232 JLINK_WriteReg(R12, 0x00000000)  returns 0x00 (0000ms, 0698ms total)
T3170 001:232 JLINK_WriteReg(R13 (SP), 0x20000800)  returns 0x00 (0000ms, 0698ms total)
T3170 001:232 JLINK_WriteReg(R14, 0x20000001)  returns 0x00 (0000ms, 0698ms total)
T3170 001:232 JLINK_WriteReg(R15 (PC), 0x200000F4)  returns 0x00 (0000ms, 0698ms total)
T3170 001:232 JLINK_WriteReg(XPSR, 0x01000000)  returns 0x00 (0000ms, 0698ms total)
T3170 001:232 JLINK_WriteReg(MSP, 0x20000800)  returns 0x00 (0000ms, 0698ms total)
T3170 001:232 JLINK_WriteReg(PSP, 0x20000800)  returns 0x00 (0000ms, 0698ms total)
T3170 001:232 JLINK_WriteReg(CFBP, 0x00000000)  returns 0x00 (0000ms, 0698ms total)
T3170 001:232 JLINK_SetBPEx(Addr = 0x20000000, Type = 0xFFFFFFF2)  returns 0x00000009 (0000ms, 0698ms total)
T3170 001:232 JLINK_Go() -- CPU_ReadMem(4 bytes @ 0xE0001000) (0002ms, 0700ms total)
T3170 001:234 JLINK_IsHalted()  returns FALSE (0000ms, 0700ms total)
T3170 001:236 JLINK_IsHalted()  returns FALSE (0000ms, 0700ms total)
T3170 001:242 JLINK_IsHalted()  returns FALSE (0000ms, 0700ms total)
T3170 001:244 JLINK_IsHalted()  returns FALSE (0000ms, 0700ms total)
T3170 001:246 JLINK_IsHalted()  returns FALSE (0000ms, 0700ms total)
T3170 001:248 JLINK_IsHalted()  returns FALSE (0000ms, 0700ms total)
T3170 001:254 JLINK_IsHalted()  returns FALSE (0000ms, 0700ms total)
T3170 001:256 JLINK_IsHalted()  returns FALSE (0000ms, 0700ms total)
T3170 001:258 JLINK_IsHalted()  returns FALSE (0000ms, 0700ms total)
T3170 001:260 JLINK_IsHalted()  returns FALSE (0000ms, 0700ms total)
T3170 001:262 JLINK_IsHalted()  returns FALSE (0000ms, 0700ms total)
T3170 001:264 JLINK_IsHalted()  returns FALSE (0000ms, 0700ms total)
T3170 001:266 JLINK_IsHalted() -- CPU_ReadMem(2 bytes @ 0x20000000)  returns TRUE (0003ms, 0703ms total)
T3170 001:269 JLINK_ReadReg(R15 (PC))  returns 0x20000000 (0000ms, 0700ms total)
T3170 001:269 JLINK_ClrBPEx(BPHandle = 0x00000009)  returns 0x00 (0000ms, 0700ms total)
T3170 001:269 JLINK_ReadReg(R0)  returns 0x00000000 (0000ms, 0700ms total)
T3170 001:269 JLINK_WriteMem(0x20000164, 0x0400 Bytes, ...) - Data: 88 72 70 47 00 10 02 40 00 00 FF F8 FF FF F6 FE ... -- CPU_WriteMem(1024 bytes @ 0x20000164)  returns 0x400 (0007ms, 0707ms total)
T3170 001:276 JLINK_WriteReg(R0, 0x08001400)  returns 0x00 (0000ms, 0707ms total)
T3170 001:276 JLINK_WriteReg(R1, 0x00000400)  returns 0x00 (0000ms, 0707ms total)
T3170 001:276 JLINK_WriteReg(R2, 0x20000164)  returns 0x00 (0000ms, 0707ms total)
T3170 001:276 JLINK_WriteReg(R3, 0x00000000)  returns 0x00 (0000ms, 0707ms total)
T3170 001:276 JLINK_WriteReg(R4, 0x00000000)  returns 0x00 (0000ms, 0707ms total)
T3170 001:276 JLINK_WriteReg(R5, 0x00000000)  returns 0x00 (0000ms, 0707ms total)
T3170 001:276 JLINK_WriteReg(R6, 0x00000000)  returns 0x00 (0000ms, 0707ms total)
T3170 001:276 JLINK_WriteReg(R7, 0x00000000)  returns 0x00 (0000ms, 0707ms total)
T3170 001:276 JLINK_WriteReg(R8, 0x00000000)  returns 0x00 (0000ms, 0707ms total)
T3170 001:276 JLINK_WriteReg(R9, 0x20000160)  returns 0x00 (0000ms, 0707ms total)
T3170 001:276 JLINK_WriteReg(R10, 0x00000000)  returns 0x00 (0000ms, 0707ms total)
T3170 001:276 JLINK_WriteReg(R11, 0x00000000)  returns 0x00 (0000ms, 0707ms total)
T3170 001:276 JLINK_WriteReg(R12, 0x00000000)  returns 0x00 (0000ms, 0707ms total)
T3170 001:276 JLINK_WriteReg(R13 (SP), 0x20000800)  returns 0x00 (0000ms, 0707ms total)
T3170 001:276 JLINK_WriteReg(R14, 0x20000001)  returns 0x00 (0000ms, 0707ms total)
T3170 001:276 JLINK_WriteReg(R15 (PC), 0x200000F4)  returns 0x00 (0000ms, 0707ms total)
T3170 001:276 JLINK_WriteReg(XPSR, 0x01000000)  returns 0x00 (0000ms, 0707ms total)
T3170 001:276 JLINK_WriteReg(MSP, 0x20000800)  returns 0x00 (0000ms, 0707ms total)
T3170 001:276 JLINK_WriteReg(PSP, 0x20000800)  returns 0x00 (0000ms, 0707ms total)
T3170 001:276 JLINK_WriteReg(CFBP, 0x00000000)  returns 0x00 (0000ms, 0707ms total)
T3170 001:276 JLINK_SetBPEx(Addr = 0x20000000, Type = 0xFFFFFFF2)  returns 0x0000000A (0000ms, 0707ms total)
T3170 001:276 JLINK_Go() -- CPU_ReadMem(4 bytes @ 0xE0001000) (0002ms, 0709ms total)
T3170 001:278 JLINK_IsHalted()  returns FALSE (0001ms, 0710ms total)
T3170 001:289 JLINK_IsHalted()  returns FALSE (0000ms, 0709ms total)
T3170 001:291 JLINK_IsHalted()  returns FALSE (0000ms, 0709ms total)
T3170 001:293 JLINK_IsHalted()  returns FALSE (0000ms, 0709ms total)
T3170 001:299 JLINK_IsHalted()  returns FALSE (0000ms, 0709ms total)
T3170 001:301 JLINK_IsHalted()  returns FALSE (0000ms, 0709ms total)
T3170 001:303 JLINK_IsHalted()  returns FALSE (0000ms, 0709ms total)
T3170 001:305 JLINK_IsHalted()  returns FALSE (0000ms, 0709ms total)
T3170 001:307 JLINK_IsHalted()  returns FALSE (0000ms, 0709ms total)
T3170 001:309 JLINK_IsHalted() -- CPU_ReadMem(2 bytes @ 0x20000000)  returns TRUE (0003ms, 0712ms total)
T3170 001:312 JLINK_ReadReg(R15 (PC))  returns 0x20000000 (0000ms, 0709ms total)
T3170 001:312 JLINK_ClrBPEx(BPHandle = 0x0000000A)  returns 0x00 (0000ms, 0709ms total)
T3170 001:312 JLINK_ReadReg(R0)  returns 0x00000000 (0000ms, 0709ms total)
T3170 001:313 JLINK_WriteMem(0x20000164, 0x0400 Bytes, ...) - Data: 02 2D 0F D1 16 8A 33 40 0E E0 00 00 00 38 01 40 ... -- CPU_WriteMem(1024 bytes @ 0x20000164)  returns 0x400 (0007ms, 0716ms total)
T3170 001:320 JLINK_WriteReg(R0, 0x08001800)  returns 0x00 (0000ms, 0716ms total)
T3170 001:320 JLINK_WriteReg(R1, 0x00000400)  returns 0x00 (0000ms, 0716ms total)
T3170 001:320 JLINK_WriteReg(R2, 0x20000164)  returns 0x00 (0000ms, 0716ms total)
T3170 001:320 JLINK_WriteReg(R3, 0x00000000)  returns 0x00 (0000ms, 0716ms total)
T3170 001:320 JLINK_WriteReg(R4, 0x00000000)  returns 0x00 (0000ms, 0716ms total)
T3170 001:320 JLINK_WriteReg(R5, 0x00000000)  returns 0x00 (0000ms, 0716ms total)
T3170 001:320 JLINK_WriteReg(R6, 0x00000000)  returns 0x00 (0000ms, 0716ms total)
T3170 001:320 JLINK_WriteReg(R7, 0x00000000)  returns 0x00 (0000ms, 0716ms total)
T3170 001:320 JLINK_WriteReg(R8, 0x00000000)  returns 0x00 (0000ms, 0716ms total)
T3170 001:320 JLINK_WriteReg(R9, 0x20000160)  returns 0x00 (0000ms, 0716ms total)
T3170 001:320 JLINK_WriteReg(R10, 0x00000000)  returns 0x00 (0000ms, 0716ms total)
T3170 001:320 JLINK_WriteReg(R11, 0x00000000)  returns 0x00 (0000ms, 0716ms total)
T3170 001:320 JLINK_WriteReg(R12, 0x00000000)  returns 0x00 (0000ms, 0716ms total)
T3170 001:320 JLINK_WriteReg(R13 (SP), 0x20000800)  returns 0x00 (0000ms, 0716ms total)
T3170 001:320 JLINK_WriteReg(R14, 0x20000001)  returns 0x00 (0000ms, 0716ms total)
T3170 001:320 JLINK_WriteReg(R15 (PC), 0x200000F4)  returns 0x00 (0000ms, 0716ms total)
T3170 001:320 JLINK_WriteReg(XPSR, 0x01000000)  returns 0x00 (0000ms, 0716ms total)
T3170 001:320 JLINK_WriteReg(MSP, 0x20000800)  returns 0x00 (0000ms, 0716ms total)
T3170 001:320 JLINK_WriteReg(PSP, 0x20000800)  returns 0x00 (0000ms, 0716ms total)
T3170 001:320 JLINK_WriteReg(CFBP, 0x00000000)  returns 0x00 (0000ms, 0716ms total)
T3170 001:320 JLINK_SetBPEx(Addr = 0x20000000, Type = 0xFFFFFFF2)  returns 0x0000000B (0000ms, 0716ms total)
T3170 001:320 JLINK_Go() -- CPU_ReadMem(4 bytes @ 0xE0001000) (0002ms, 0718ms total)
T3170 001:322 JLINK_IsHalted()  returns FALSE (0000ms, 0718ms total)
T3170 001:325 JLINK_IsHalted()  returns FALSE (0001ms, 0719ms total)
T3170 001:333 JLINK_IsHalted()  returns FALSE (0000ms, 0718ms total)
T3170 001:335 JLINK_IsHalted()  returns FALSE (0000ms, 0718ms total)
T3170 001:337 JLINK_IsHalted()  returns FALSE (0000ms, 0718ms total)
T3170 001:339 JLINK_IsHalted()  returns FALSE (0000ms, 0718ms total)
T3170 001:340 JLINK_IsHalted()  returns FALSE (0001ms, 0719ms total)
T3170 001:348 JLINK_IsHalted()  returns FALSE (0000ms, 0718ms total)
T3170 001:350 JLINK_IsHalted()  returns FALSE (0000ms, 0718ms total)
T3170 001:352 JLINK_IsHalted()  returns FALSE (0000ms, 0718ms total)
T3170 001:354 JLINK_IsHalted() -- CPU_ReadMem(2 bytes @ 0x20000000)  returns TRUE (0002ms, 0720ms total)
T3170 001:356 JLINK_ReadReg(R15 (PC))  returns 0x20000000 (0000ms, 0718ms total)
T3170 001:356 JLINK_ClrBPEx(BPHandle = 0x0000000B)  returns 0x00 (0000ms, 0718ms total)
T3170 001:356 JLINK_ReadReg(R0)  returns 0x00000000 (0000ms, 0718ms total)
T3170 001:357 JLINK_WriteMem(0x20000164, 0x0400 Bytes, ...) - Data: 40 00 A1 68 B0 FB F1 F0 40 1D 86 B2 0A 20 B6 FB ... -- CPU_WriteMem(1024 bytes @ 0x20000164)  returns 0x400 (0006ms, 0724ms total)
T3170 001:363 JLINK_WriteReg(R0, 0x08001C00)  returns 0x00 (0000ms, 0724ms total)
T3170 001:363 JLINK_WriteReg(R1, 0x00000400)  returns 0x00 (0000ms, 0724ms total)
T3170 001:363 JLINK_WriteReg(R2, 0x20000164)  returns 0x00 (0000ms, 0724ms total)
T3170 001:363 JLINK_WriteReg(R3, 0x00000000)  returns 0x00 (0000ms, 0724ms total)
T3170 001:363 JLINK_WriteReg(R4, 0x00000000)  returns 0x00 (0000ms, 0724ms total)
T3170 001:363 JLINK_WriteReg(R5, 0x00000000)  returns 0x00 (0000ms, 0724ms total)
T3170 001:363 JLINK_WriteReg(R6, 0x00000000)  returns 0x00 (0000ms, 0724ms total)
T3170 001:363 JLINK_WriteReg(R7, 0x00000000)  returns 0x00 (0000ms, 0724ms total)
T3170 001:363 JLINK_WriteReg(R8, 0x00000000)  returns 0x00 (0000ms, 0724ms total)
T3170 001:363 JLINK_WriteReg(R9, 0x20000160)  returns 0x00 (0000ms, 0724ms total)
T3170 001:363 JLINK_WriteReg(R10, 0x00000000)  returns 0x00 (0000ms, 0724ms total)
T3170 001:363 JLINK_WriteReg(R11, 0x00000000)  returns 0x00 (0000ms, 0724ms total)
T3170 001:363 JLINK_WriteReg(R12, 0x00000000)  returns 0x00 (0000ms, 0724ms total)
T3170 001:363 JLINK_WriteReg(R13 (SP), 0x20000800)  returns 0x00 (0000ms, 0724ms total)
T3170 001:363 JLINK_WriteReg(R14, 0x20000001)  returns 0x00 (0000ms, 0724ms total)
T3170 001:363 JLINK_WriteReg(R15 (PC), 0x200000F4)  returns 0x00 (0000ms, 0724ms total)
T3170 001:363 JLINK_WriteReg(XPSR, 0x01000000)  returns 0x00 (0001ms, 0725ms total)
T3170 001:364 JLINK_WriteReg(MSP, 0x20000800)  returns 0x00 (0000ms, 0725ms total)
T3170 001:364 JLINK_WriteReg(PSP, 0x20000800)  returns 0x00 (0000ms, 0725ms total)
T3170 001:364 JLINK_WriteReg(CFBP, 0x00000000)  returns 0x00 (0000ms, 0725ms total)
T3170 001:364 JLINK_SetBPEx(Addr = 0x20000000, Type = 0xFFFFFFF2)  returns 0x0000000C (0000ms, 0725ms total)
T3170 001:364 JLINK_Go() -- CPU_ReadMem(4 bytes @ 0xE0001000) (0001ms, 0726ms total)
T3170 001:365 JLINK_IsHalted()  returns FALSE (0001ms, 0727ms total)
T3170 001:371 JLINK_IsHalted()  returns FALSE (0000ms, 0726ms total)
T3170 001:373 JLINK_IsHalted()  returns FALSE (0000ms, 0726ms total)
T3170 001:381 JLINK_IsHalted()  returns FALSE (0000ms, 0726ms total)
T3170 001:383 JLINK_IsHalted()  returns FALSE (0000ms, 0726ms total)
T3170 001:385 JLINK_IsHalted()  returns FALSE (0000ms, 0726ms total)
T3170 001:387 JLINK_IsHalted()  returns FALSE (0000ms, 0726ms total)
T3170 001:393 JLINK_IsHalted()  returns FALSE (0000ms, 0726ms total)
T3170 001:395 JLINK_IsHalted()  returns FALSE (0000ms, 0726ms total)
T3170 001:397 JLINK_IsHalted() -- CPU_ReadMem(2 bytes @ 0x20000000)  returns TRUE (0002ms, 0728ms total)
T3170 001:399 JLINK_ReadReg(R15 (PC))  returns 0x20000000 (0000ms, 0726ms total)
T3170 001:399 JLINK_ClrBPEx(BPHandle = 0x0000000C)  returns 0x00 (0000ms, 0726ms total)
T3170 001:399 JLINK_ReadReg(R0)  returns 0x00000000 (0000ms, 0726ms total)
T3170 001:400 JLINK_WriteMem(0x20000164, 0x0400 Bytes, ...) - Data: FE E7 00 BF FE E7 00 BF FE E7 00 BF FE E7 70 47 ... -- CPU_WriteMem(1024 bytes @ 0x20000164)  returns 0x400 (0006ms, 0732ms total)
T3170 001:406 JLINK_WriteReg(R0, 0x08002000)  returns 0x00 (0000ms, 0732ms total)
T3170 001:406 JLINK_WriteReg(R1, 0x00000400)  returns 0x00 (0000ms, 0732ms total)
T3170 001:406 JLINK_WriteReg(R2, 0x20000164)  returns 0x00 (0000ms, 0732ms total)
T3170 001:406 JLINK_WriteReg(R3, 0x00000000)  returns 0x00 (0000ms, 0732ms total)
T3170 001:407 JLINK_WriteReg(R4, 0x00000000)  returns 0x00 (0000ms, 0732ms total)
T3170 001:407 JLINK_WriteReg(R5, 0x00000000)  returns 0x00 (0000ms, 0732ms total)
T3170 001:407 JLINK_WriteReg(R6, 0x00000000)  returns 0x00 (0000ms, 0732ms total)
T3170 001:407 JLINK_WriteReg(R7, 0x00000000)  returns 0x00 (0000ms, 0732ms total)
T3170 001:407 JLINK_WriteReg(R8, 0x00000000)  returns 0x00 (0000ms, 0732ms total)
T3170 001:407 JLINK_WriteReg(R9, 0x20000160)  returns 0x00 (0000ms, 0732ms total)
T3170 001:407 JLINK_WriteReg(R10, 0x00000000)  returns 0x00 (0000ms, 0732ms total)
T3170 001:407 JLINK_WriteReg(R11, 0x00000000)  returns 0x00 (0000ms, 0732ms total)
T3170 001:407 JLINK_WriteReg(R12, 0x00000000)  returns 0x00 (0000ms, 0732ms total)
T3170 001:407 JLINK_WriteReg(R13 (SP), 0x20000800)  returns 0x00 (0000ms, 0732ms total)
T3170 001:407 JLINK_WriteReg(R14, 0x20000001)  returns 0x00 (0000ms, 0732ms total)
T3170 001:407 JLINK_WriteReg(R15 (PC), 0x200000F4)  returns 0x00 (0000ms, 0732ms total)
T3170 001:407 JLINK_WriteReg(XPSR, 0x01000000)  returns 0x00 (0000ms, 0732ms total)
T3170 001:407 JLINK_WriteReg(MSP, 0x20000800)  returns 0x00 (0000ms, 0732ms total)
T3170 001:407 JLINK_WriteReg(PSP, 0x20000800)  returns 0x00 (0000ms, 0732ms total)
T3170 001:407 JLINK_WriteReg(CFBP, 0x00000000)  returns 0x00 (0000ms, 0732ms total)
T3170 001:407 JLINK_SetBPEx(Addr = 0x20000000, Type = 0xFFFFFFF2)  returns 0x0000000D (0000ms, 0732ms total)
T3170 001:407 JLINK_Go() -- CPU_ReadMem(4 bytes @ 0xE0001000) (0001ms, 0733ms total)
T3170 001:408 JLINK_IsHalted()  returns FALSE (0001ms, 0734ms total)
T3170 001:413 JLINK_IsHalted()  returns FALSE (0000ms, 0733ms total)
T3170 001:415 JLINK_IsHalted()  returns FALSE (0000ms, 0733ms total)
T3170 001:417 JLINK_IsHalted()  returns FALSE (0000ms, 0733ms total)
T3170 001:419 JLINK_IsHalted()  returns FALSE (0000ms, 0733ms total)
T3170 001:421 JLINK_IsHalted()  returns FALSE (0000ms, 0733ms total)
T3170 001:423 JLINK_IsHalted()  returns FALSE (0000ms, 0733ms total)
T3170 001:425 JLINK_IsHalted()  returns FALSE (0001ms, 0734ms total)
T3170 001:429 JLINK_IsHalted()  returns FALSE (0000ms, 0733ms total)
T3170 001:431 JLINK_IsHalted()  returns FALSE (0000ms, 0733ms total)
T3170 001:433 JLINK_IsHalted()  returns FALSE (0000ms, 0733ms total)
T3170 001:435 JLINK_IsHalted()  returns FALSE (0000ms, 0733ms total)
T3170 001:440 JLINK_IsHalted() -- CPU_ReadMem(2 bytes @ 0x20000000)  returns TRUE (0002ms, 0735ms total)
T3170 001:442 JLINK_ReadReg(R15 (PC))  returns 0x20000000 (0000ms, 0733ms total)
T3170 001:442 JLINK_ClrBPEx(BPHandle = 0x0000000D)  returns 0x00 (0000ms, 0733ms total)
T3170 001:442 JLINK_ReadReg(R0)  returns 0x00000000 (0000ms, 0733ms total)
T3170 001:443 JLINK_WriteMem(0x20000164, 0x0400 Bytes, ...) - Data: 48 20 8D F8 03 00 69 46 CF 48 FE F7 ED FC 04 20 ... -- CPU_WriteMem(1024 bytes @ 0x20000164)  returns 0x400 (0006ms, 0739ms total)
T3170 001:449 JLINK_WriteReg(R0, 0x08002400)  returns 0x00 (0000ms, 0739ms total)
T3170 001:449 JLINK_WriteReg(R1, 0x00000400)  returns 0x00 (0000ms, 0739ms total)
T3170 001:449 JLINK_WriteReg(R2, 0x20000164)  returns 0x00 (0000ms, 0739ms total)
T3170 001:449 JLINK_WriteReg(R3, 0x00000000)  returns 0x00 (0000ms, 0739ms total)
T3170 001:449 JLINK_WriteReg(R4, 0x00000000)  returns 0x00 (0000ms, 0739ms total)
T3170 001:449 JLINK_WriteReg(R5, 0x00000000)  returns 0x00 (0000ms, 0739ms total)
T3170 001:449 JLINK_WriteReg(R6, 0x00000000)  returns 0x00 (0000ms, 0739ms total)
T3170 001:449 JLINK_WriteReg(R7, 0x00000000)  returns 0x00 (0000ms, 0739ms total)
T3170 001:449 JLINK_WriteReg(R8, 0x00000000)  returns 0x00 (0000ms, 0739ms total)
T3170 001:449 JLINK_WriteReg(R9, 0x20000160)  returns 0x00 (0000ms, 0739ms total)
T3170 001:449 JLINK_WriteReg(R10, 0x00000000)  returns 0x00 (0000ms, 0739ms total)
T3170 001:449 JLINK_WriteReg(R11, 0x00000000)  returns 0x00 (0000ms, 0739ms total)
T3170 001:449 JLINK_WriteReg(R12, 0x00000000)  returns 0x00 (0001ms, 0740ms total)
T3170 001:450 JLINK_WriteReg(R13 (SP), 0x20000800)  returns 0x00 (0000ms, 0740ms total)
T3170 001:450 JLINK_WriteReg(R14, 0x20000001)  returns 0x00 (0000ms, 0740ms total)
T3170 001:450 JLINK_WriteReg(R15 (PC), 0x200000F4)  returns 0x00 (0000ms, 0740ms total)
T3170 001:450 JLINK_WriteReg(XPSR, 0x01000000)  returns 0x00 (0000ms, 0740ms total)
T3170 001:450 JLINK_WriteReg(MSP, 0x20000800)  returns 0x00 (0000ms, 0740ms total)
T3170 001:450 JLINK_WriteReg(PSP, 0x20000800)  returns 0x00 (0000ms, 0740ms total)
T3170 001:450 JLINK_WriteReg(CFBP, 0x00000000)  returns 0x00 (0000ms, 0740ms total)
T3170 001:450 JLINK_SetBPEx(Addr = 0x20000000, Type = 0xFFFFFFF2)  returns 0x0000000E (0000ms, 0740ms total)
T3170 001:450 JLINK_Go() -- CPU_ReadMem(4 bytes @ 0xE0001000) (0001ms, 0741ms total)
T3170 001:451 JLINK_IsHalted()  returns FALSE (0001ms, 0742ms total)
